         * /home/20ec3038/esim-workspace/conversionff/conversionff.cir
         Transient Analysis  Wed Oct  5 11:15:09  2022
--------------------------------------------------------------------------------
Index   time                            clk             j               
--------------------------------------------------------------------------------
0	0.000000e+00	0.000000e+00	0.000000e+00	1.800000e+00	
1	1.000000e-12	0.000000e+00	0.000000e+00	1.800000e+00	
2	2.000000e-12	0.000000e+00	0.000000e+00	1.800000e+00	
3	4.000000e-12	0.000000e+00	0.000000e+00	1.800000e+00	
4	8.000000e-12	0.000000e+00	0.000000e+00	1.800000e+00	
5	1.600000e-11	0.000000e+00	0.000000e+00	1.800000e+00	
6	3.200000e-11	0.000000e+00	0.000000e+00	1.800000e+00	
7	6.400000e-11	0.000000e+00	0.000000e+00	1.800000e+00	
8	1.000000e-10	0.000000e+00	0.000000e+00	1.800000e+00	
9	1.015035e-10	0.000000e+00	2.706322e-02	1.772937e+00	
10	1.045105e-10	0.000000e+00	8.118966e-02	1.718810e+00	
11	1.105246e-10	0.000000e+00	1.894425e-01	1.610557e+00	
12	1.225527e-10	0.000000e+00	4.059483e-01	1.394052e+00	
13	1.394976e-10	0.000000e+00	7.109574e-01	1.089043e+00	
14	1.576174e-10	0.000000e+00	1.037113e+00	7.628869e-01	
15	1.818945e-10	0.000000e+00	1.474100e+00	3.258998e-01	
16	2.000000e-10	0.000000e+00	1.800000e+00	0.000000e+00	
17	2.016312e-10	0.000000e+00	1.800000e+00	0.000000e+00	
18	2.048935e-10	0.000000e+00	1.800000e+00	0.000000e+00	
19	2.114182e-10	0.000000e+00	1.800000e+00	0.000000e+00	
20	2.244676e-10	0.000000e+00	1.800000e+00	0.000000e+00	
21	2.505663e-10	0.000000e+00	1.800000e+00	0.000000e+00	
22	2.792014e-10	0.000000e+00	1.800000e+00	0.000000e+00	
23	3.187303e-10	0.000000e+00	1.800000e+00	0.000000e+00	
24	3.601053e-10	0.000000e+00	1.800000e+00	0.000000e+00	
25	4.403349e-10	0.000000e+00	1.800000e+00	0.000000e+00	
26	5.830288e-10	0.000000e+00	1.800000e+00	0.000000e+00	
27	7.851953e-10	0.000000e+00	1.800000e+00	0.000000e+00	
28	1.111087e-09	0.000000e+00	1.800000e+00	0.000000e+00	
29	1.688561e-09	0.000000e+00	1.800000e+00	0.000000e+00	
30	2.843508e-09	0.000000e+00	1.800000e+00	0.000000e+00	
31	5.153403e-09	0.000000e+00	1.800000e+00	0.000000e+00	
32	9.773193e-09	0.000000e+00	1.800000e+00	0.000000e+00	
33	1.720000e-08	0.000000e+00	1.800000e+00	0.000000e+00	
34	1.721000e-08	0.000000e+00	1.620000e+00	0.000000e+00	
35	1.723000e-08	0.000000e+00	1.260000e+00	0.000000e+00	
36	1.724779e-08	0.000000e+00	9.397055e-01	0.000000e+00	
37	1.726616e-08	0.000000e+00	6.091073e-01	0.000000e+00	
38	1.728802e-08	0.000000e+00	2.156932e-01	0.000000e+00	
39	1.730000e-08	0.000000e+00	4.352074e-14	0.000000e+00	
40	1.730102e-08	0.000000e+00	0.000000e+00	0.000000e+00	
41	1.730306e-08	0.000000e+00	0.000000e+00	0.000000e+00	
42	1.730714e-08	0.000000e+00	0.000000e+00	0.000000e+00	
43	1.731530e-08	0.000000e+00	0.000000e+00	0.000000e+00	
44	1.733162e-08	0.000000e+00	0.000000e+00	0.000000e+00	
45	1.736425e-08	0.000000e+00	0.000000e+00	0.000000e+00	
46	1.742952e-08	0.000000e+00	0.000000e+00	0.000000e+00	
47	1.750661e-08	0.000000e+00	0.000000e+00	0.000000e+00	
48	1.760584e-08	0.000000e+00	0.000000e+00	0.000000e+00	
49	1.773638e-08	0.000000e+00	0.000000e+00	0.000000e+00	
50	1.797554e-08	0.000000e+00	0.000000e+00	0.000000e+00	
51	1.835948e-08	0.000000e+00	0.000000e+00	0.000000e+00	
52	1.912735e-08	0.000000e+00	0.000000e+00	0.000000e+00	
53	2.037247e-08	0.000000e+00	0.000000e+00	0.000000e+00	
54	2.247434e-08	0.000000e+00	0.000000e+00	0.000000e+00	

Index   time                            clk             j               
--------------------------------------------------------------------------------
55	2.597240e-08	0.000000e+00	0.000000e+00	0.000000e+00	
56	3.234173e-08	0.000000e+00	0.000000e+00	0.000000e+00	
57	4.334219e-08	0.000000e+00	0.000000e+00	0.000000e+00	
58	5.010000e-08	0.000000e+00	0.000000e+00	0.000000e+00	
59	5.011000e-08	0.000000e+00	1.800000e-01	0.000000e+00	
60	5.013000e-08	0.000000e+00	5.400000e-01	0.000000e+00	
61	5.014735e-08	0.000000e+00	8.523593e-01	0.000000e+00	
62	5.017010e-08	0.000000e+00	1.261794e+00	0.000000e+00	
63	5.019526e-08	0.000000e+00	1.714716e+00	0.000000e+00	
64	5.020000e-08	0.000000e+00	1.800000e+00	0.000000e+00	
65	5.020062e-08	0.000000e+00	1.800000e+00	1.119848e-02	
66	5.020187e-08	0.000000e+00	1.800000e+00	3.359544e-02	
67	5.020435e-08	0.000000e+00	1.800000e+00	7.838935e-02	
68	5.020933e-08	0.000000e+00	1.800000e+00	1.679772e-01	
69	5.021929e-08	0.000000e+00	1.800000e+00	3.471528e-01	
70	5.023919e-08	0.000000e+00	1.800000e+00	7.055042e-01	
71	5.027504e-08	0.000000e+00	1.800000e+00	1.350658e+00	
72	5.030000e-08	0.000000e+00	1.800000e+00	1.800000e+00	
73	5.030341e-08	0.000000e+00	1.800000e+00	1.800000e+00	
74	5.031022e-08	0.000000e+00	1.800000e+00	1.800000e+00	
75	5.032385e-08	0.000000e+00	1.800000e+00	1.800000e+00	
76	5.035111e-08	0.000000e+00	1.800000e+00	1.800000e+00	
77	5.040562e-08	0.000000e+00	1.800000e+00	1.800000e+00	
78	5.051465e-08	0.000000e+00	1.800000e+00	1.800000e+00	
79	5.071293e-08	0.000000e+00	1.800000e+00	1.800000e+00	
80	5.098260e-08	0.000000e+00	1.800000e+00	1.800000e+00	
81	5.144449e-08	0.000000e+00	1.800000e+00	1.800000e+00	
82	5.227797e-08	0.000000e+00	1.800000e+00	1.800000e+00	
83	5.315316e-08	0.000000e+00	1.800000e+00	1.800000e+00	
84	5.356911e-08	0.000000e+00	1.800000e+00	1.800000e+00	
85	5.382955e-08	0.000000e+00	1.800000e+00	1.800000e+00	
86	5.402694e-08	0.000000e+00	1.800000e+00	1.800000e+00	
87	5.426062e-08	0.000000e+00	1.800000e+00	1.800000e+00	
88	5.454700e-08	0.000000e+00	1.800000e+00	1.800000e+00	
89	5.492030e-08	0.000000e+00	1.800000e+00	1.800000e+00	
90	5.538231e-08	0.000000e+00	1.800000e+00	1.800000e+00	
91	5.589918e-08	0.000000e+00	1.800000e+00	1.800000e+00	
92	5.665849e-08	0.000000e+00	1.800000e+00	1.800000e+00	
93	5.775918e-08	0.000000e+00	1.800000e+00	1.800000e+00	
94	5.996057e-08	0.000000e+00	1.800000e+00	1.800000e+00	
95	6.436335e-08	0.000000e+00	1.800000e+00	1.800000e+00	
96	6.720000e-08	0.000000e+00	1.800000e+00	1.800000e+00	
97	6.721000e-08	0.000000e+00	1.620000e+00	1.800000e+00	
98	6.723000e-08	0.000000e+00	1.260000e+00	1.800000e+00	
99	6.724835e-08	0.000000e+00	9.297681e-01	1.800000e+00	
100	6.726677e-08	0.000000e+00	5.981053e-01	1.800000e+00	
101	6.728771e-08	0.000000e+00	2.212274e-01	1.800000e+00	
102	6.730000e-08	0.000000e+00	0.000000e+00	1.800000e+00	
103	6.730102e-08	0.000000e+00	0.000000e+00	1.800000e+00	
104	6.730307e-08	0.000000e+00	0.000000e+00	1.800000e+00	
105	6.730716e-08	0.000000e+00	0.000000e+00	1.800000e+00	
106	6.731534e-08	0.000000e+00	0.000000e+00	1.800000e+00	
107	6.733169e-08	0.000000e+00	0.000000e+00	1.800000e+00	
108	6.736441e-08	0.000000e+00	0.000000e+00	1.800000e+00	
109	6.741715e-08	0.000000e+00	0.000000e+00	1.800000e+00	
110	6.747901e-08	0.000000e+00	0.000000e+00	1.800000e+00	
111	6.756350e-08	0.000000e+00	0.000000e+00	1.800000e+00	
112	6.768760e-08	0.000000e+00	0.000000e+00	1.800000e+00	

Index   time                            clk             j               
--------------------------------------------------------------------------------
113	6.787320e-08	0.000000e+00	0.000000e+00	1.800000e+00	
114	6.819607e-08	0.000000e+00	0.000000e+00	1.800000e+00	
115	6.884182e-08	0.000000e+00	0.000000e+00	1.800000e+00	
116	6.981368e-08	0.000000e+00	0.000000e+00	1.800000e+00	
117	7.132683e-08	0.000000e+00	0.000000e+00	1.800000e+00	
118	7.428640e-08	0.000000e+00	0.000000e+00	1.800000e+00	
119	7.918856e-08	0.000000e+00	0.000000e+00	1.800000e+00	
120	8.817162e-08	0.000000e+00	0.000000e+00	1.800000e+00	
121	1.001000e-07	0.000000e+00	0.000000e+00	1.800000e+00	
122	1.001100e-07	0.000000e+00	1.800000e-01	1.620000e+00	
123	1.001300e-07	0.000000e+00	5.400000e-01	1.260000e+00	
124	1.001537e-07	0.000000e+00	9.664183e-01	8.335817e-01	
125	1.001789e-07	0.000000e+00	1.420038e+00	3.799622e-01	
126	1.002000e-07	0.000000e+00	1.800000e+00	1.030287e-13	
127	1.002018e-07	0.000000e+00	1.800000e+00	0.000000e+00	
128	1.002055e-07	0.000000e+00	1.800000e+00	0.000000e+00	
129	1.002128e-07	0.000000e+00	1.800000e+00	0.000000e+00	
130	1.002275e-07	0.000000e+00	1.800000e+00	0.000000e+00	
131	1.002569e-07	0.000000e+00	1.800000e+00	0.000000e+00	
132	1.002861e-07	0.000000e+00	1.800000e+00	0.000000e+00	
133	1.003294e-07	0.000000e+00	1.800000e+00	0.000000e+00	
134	1.003786e-07	0.000000e+00	1.800000e+00	0.000000e+00	
135	1.004770e-07	0.000000e+00	1.800000e+00	0.000000e+00	
136	1.006160e-07	0.000000e+00	1.800000e+00	0.000000e+00	
137	1.008415e-07	0.000000e+00	1.800000e+00	0.000000e+00	
138	1.012357e-07	0.000000e+00	1.800000e+00	0.000000e+00	
139	1.020241e-07	0.000000e+00	1.800000e+00	0.000000e+00	
140	1.030126e-07	0.000000e+00	1.800000e+00	0.000000e+00	
141	1.047229e-07	0.000000e+00	1.800000e+00	0.000000e+00	
142	1.079442e-07	0.000000e+00	1.800000e+00	0.000000e+00	
143	1.143867e-07	0.000000e+00	1.800000e+00	0.000000e+00	
144	1.172000e-07	0.000000e+00	1.800000e+00	0.000000e+00	
145	1.172100e-07	0.000000e+00	1.620000e+00	0.000000e+00	
146	1.172300e-07	0.000000e+00	1.260000e+00	0.000000e+00	
147	1.172483e-07	0.000000e+00	9.297933e-01	0.000000e+00	
148	1.172668e-07	0.000000e+00	5.981474e-01	0.000000e+00	
149	1.172877e-07	0.000000e+00	2.212763e-01	0.000000e+00	
150	1.173000e-07	0.000000e+00	3.412826e-13	0.000000e+00	
151	1.173010e-07	0.000000e+00	0.000000e+00	0.000000e+00	
152	1.173031e-07	0.000000e+00	0.000000e+00	0.000000e+00	
153	1.173072e-07	0.000000e+00	0.000000e+00	0.000000e+00	
154	1.173153e-07	0.000000e+00	0.000000e+00	0.000000e+00	
155	1.173317e-07	0.000000e+00	0.000000e+00	0.000000e+00	
156	1.173644e-07	0.000000e+00	0.000000e+00	0.000000e+00	
157	1.174172e-07	0.000000e+00	0.000000e+00	0.000000e+00	
158	1.174790e-07	0.000000e+00	0.000000e+00	0.000000e+00	
159	1.175635e-07	0.000000e+00	0.000000e+00	0.000000e+00	
160	1.176876e-07	0.000000e+00	0.000000e+00	0.000000e+00	
161	1.178733e-07	0.000000e+00	0.000000e+00	0.000000e+00	
162	1.181962e-07	0.000000e+00	0.000000e+00	0.000000e+00	
163	1.188421e-07	0.000000e+00	0.000000e+00	0.000000e+00	
164	1.198141e-07	0.000000e+00	0.000000e+00	0.000000e+00	
165	1.213276e-07	0.000000e+00	0.000000e+00	0.000000e+00	
166	1.242875e-07	0.000000e+00	0.000000e+00	0.000000e+00	
167	1.291908e-07	0.000000e+00	0.000000e+00	0.000000e+00	
168	1.381751e-07	0.000000e+00	0.000000e+00	0.000000e+00	
169	1.501000e-07	0.000000e+00	0.000000e+00	0.000000e+00	
170	1.501100e-07	0.000000e+00	1.800000e-01	0.000000e+00	

Index   time                            clk             j               
--------------------------------------------------------------------------------
171	1.501300e-07	0.000000e+00	5.400000e-01	0.000000e+00	
172	1.501537e-07	0.000000e+00	9.664132e-01	0.000000e+00	
173	1.501789e-07	0.000000e+00	1.420033e+00	0.000000e+00	
174	1.502000e-07	0.000000e+00	1.800000e+00	0.000000e+00	
175	1.502018e-07	0.000000e+00	1.800000e+00	3.301680e-02	
176	1.502055e-07	0.000000e+00	1.800000e+00	9.905040e-02	
177	1.502128e-07	0.000000e+00	1.800000e+00	2.311176e-01	
178	1.502275e-07	0.000000e+00	1.800000e+00	4.952520e-01	
179	1.502569e-07	0.000000e+00	1.800000e+00	1.023521e+00	
180	1.502861e-07	0.000000e+00	1.800000e+00	1.550139e+00	
181	1.503000e-07	0.000000e+00	1.800000e+00	1.800000e+00	
182	1.503043e-07	0.000000e+00	1.800000e+00	1.800000e+00	
183	1.503130e-07	0.000000e+00	1.800000e+00	1.800000e+00	
184	1.503303e-07	0.000000e+00	1.800000e+00	1.800000e+00	
185	1.503650e-07	0.000000e+00	1.800000e+00	1.800000e+00	
186	1.504342e-07	0.000000e+00	1.800000e+00	1.800000e+00	
187	1.505728e-07	0.000000e+00	1.800000e+00	1.800000e+00	
188	1.507674e-07	0.000000e+00	1.800000e+00	1.800000e+00	
189	1.510874e-07	0.000000e+00	1.800000e+00	1.800000e+00	
190	1.517275e-07	0.000000e+00	1.800000e+00	1.800000e+00	
191	1.526520e-07	0.000000e+00	1.800000e+00	1.800000e+00	
192	1.540733e-07	0.000000e+00	1.800000e+00	1.800000e+00	
193	1.565657e-07	0.000000e+00	1.800000e+00	1.800000e+00	
194	1.615504e-07	0.000000e+00	1.800000e+00	1.800000e+00	
195	1.672000e-07	0.000000e+00	1.800000e+00	1.800000e+00	
196	1.672100e-07	0.000000e+00	1.620000e+00	1.800000e+00	
197	1.672300e-07	0.000000e+00	1.260000e+00	1.800000e+00	
198	1.672483e-07	0.000000e+00	9.297692e-01	1.800000e+00	
199	1.672668e-07	0.000000e+00	5.981117e-01	1.800000e+00	
200	1.672877e-07	0.000000e+00	2.212431e-01	1.800000e+00	
201	1.673000e-07	0.000000e+00	0.000000e+00	1.800000e+00	
202	1.673010e-07	0.000000e+00	0.000000e+00	1.800000e+00	
203	1.673031e-07	0.000000e+00	0.000000e+00	1.800000e+00	
204	1.673072e-07	0.000000e+00	0.000000e+00	1.800000e+00	
205	1.673153e-07	0.000000e+00	0.000000e+00	1.800000e+00	
206	1.673317e-07	0.000000e+00	0.000000e+00	1.800000e+00	
207	1.673644e-07	0.000000e+00	0.000000e+00	1.800000e+00	
208	1.674172e-07	0.000000e+00	0.000000e+00	1.800000e+00	
209	1.674790e-07	0.000000e+00	0.000000e+00	1.800000e+00	
210	1.675635e-07	0.000000e+00	0.000000e+00	1.800000e+00	
211	1.676876e-07	0.000000e+00	0.000000e+00	1.800000e+00	
212	1.678732e-07	0.000000e+00	0.000000e+00	1.800000e+00	
213	1.681961e-07	0.000000e+00	0.000000e+00	1.800000e+00	
214	1.688419e-07	0.000000e+00	0.000000e+00	1.800000e+00	
215	1.698138e-07	0.000000e+00	0.000000e+00	1.800000e+00	
216	1.713270e-07	0.000000e+00	0.000000e+00	1.800000e+00	
217	1.742866e-07	0.000000e+00	0.000000e+00	1.800000e+00	
218	1.791890e-07	0.000000e+00	0.000000e+00	1.800000e+00	
219	1.881723e-07	0.000000e+00	0.000000e+00	1.800000e+00	
220	2.001000e-07	0.000000e+00	0.000000e+00	1.800000e+00	
221	2.001100e-07	0.000000e+00	1.800000e-01	1.620000e+00	
222	2.001300e-07	0.000000e+00	5.400000e-01	1.260000e+00	
223	2.001537e-07	0.000000e+00	9.664182e-01	8.335818e-01	
224	2.001789e-07	0.000000e+00	1.420038e+00	3.799624e-01	
225	2.002000e-07	0.000000e+00	1.800000e+00	3.412826e-13	
226	2.002018e-07	0.000000e+00	1.800000e+00	0.000000e+00	
227	2.002055e-07	0.000000e+00	1.800000e+00	0.000000e+00	
228	2.002128e-07	0.000000e+00	1.800000e+00	0.000000e+00	

Index   time                            clk             j               
--------------------------------------------------------------------------------
229	2.002275e-07	0.000000e+00	1.800000e+00	0.000000e+00	
230	2.002569e-07	0.000000e+00	1.800000e+00	0.000000e+00	
231	2.002861e-07	0.000000e+00	1.800000e+00	0.000000e+00	
232	2.003294e-07	0.000000e+00	1.800000e+00	0.000000e+00	
233	2.003786e-07	0.000000e+00	1.800000e+00	0.000000e+00	
234	2.004770e-07	0.000000e+00	1.800000e+00	0.000000e+00	
235	2.006160e-07	0.000000e+00	1.800000e+00	0.000000e+00	
236	2.008415e-07	0.000000e+00	1.800000e+00	0.000000e+00	
237	2.012357e-07	0.000000e+00	1.800000e+00	0.000000e+00	
238	2.020241e-07	0.000000e+00	1.800000e+00	0.000000e+00	
239	2.021789e-07	0.000000e+00	1.800000e+00	0.000000e+00	
240	2.021810e-07	0.000000e+00	1.800000e+00	0.000000e+00	
241	2.021852e-07	0.000000e+00	1.800000e+00	0.000000e+00	
242	2.021935e-07	0.000000e+00	1.800000e+00	0.000000e+00	
243	2.022102e-07	0.000000e+00	1.800000e+00	0.000000e+00	
244	2.022436e-07	0.000000e+00	1.800000e+00	0.000000e+00	
245	2.023104e-07	0.000000e+00	1.800000e+00	0.000000e+00	
246	2.023864e-07	0.000000e+00	1.800000e+00	0.000000e+00	
247	2.024672e-07	0.000000e+00	1.800000e+00	0.000000e+00	
248	2.025242e-07	0.000000e+00	1.800000e+00	0.000000e+00	
249	2.025866e-07	0.000000e+00	1.800000e+00	0.000000e+00	
250	2.026345e-07	0.000000e+00	1.800000e+00	0.000000e+00	
251	2.026882e-07	0.000000e+00	1.800000e+00	0.000000e+00	
252	2.027582e-07	0.000000e+00	1.800000e+00	0.000000e+00	
253	2.028336e-07	0.000000e+00	1.800000e+00	0.000000e+00	
254	2.029041e-07	0.000000e+00	1.800000e+00	0.000000e+00	
255	2.029962e-07	0.000000e+00	1.800000e+00	0.000000e+00	
256	2.031346e-07	0.000000e+00	1.800000e+00	0.000000e+00	
257	2.031789e-07	0.000000e+00	1.800000e+00	0.000000e+00	
258	2.031822e-07	0.000000e+00	1.800000e+00	0.000000e+00	
259	2.031887e-07	0.000000e+00	1.800000e+00	0.000000e+00	
260	2.032019e-07	0.000000e+00	1.800000e+00	0.000000e+00	
261	2.032282e-07	0.000000e+00	1.800000e+00	0.000000e+00	
262	2.032807e-07	0.000000e+00	1.800000e+00	0.000000e+00	
263	2.033738e-07	0.000000e+00	1.800000e+00	0.000000e+00	
264	2.034752e-07	0.000000e+00	1.800000e+00	0.000000e+00	
265	2.035839e-07	0.000000e+00	1.800000e+00	0.000000e+00	
266	2.037472e-07	0.000000e+00	1.800000e+00	0.000000e+00	
267	2.039258e-07	0.000000e+00	1.800000e+00	0.000000e+00	
268	2.042538e-07	0.000000e+00	1.800000e+00	0.000000e+00	
269	2.045710e-07	0.000000e+00	1.800000e+00	0.000000e+00	
270	2.046345e-07	0.000000e+00	1.800000e+00	0.000000e+00	
271	2.046365e-07	0.000000e+00	1.800000e+00	0.000000e+00	
272	2.046406e-07	0.000000e+00	1.800000e+00	0.000000e+00	
273	2.046487e-07	0.000000e+00	1.800000e+00	0.000000e+00	
274	2.046649e-07	0.000000e+00	1.800000e+00	0.000000e+00	
275	2.046973e-07	0.000000e+00	1.800000e+00	0.000000e+00	
276	2.047622e-07	0.000000e+00	1.800000e+00	0.000000e+00	
277	2.048520e-07	0.000000e+00	1.800000e+00	0.000000e+00	
278	2.050152e-07	0.000000e+00	1.800000e+00	0.000000e+00	
279	2.051054e-07	0.000000e+00	1.800000e+00	0.000000e+00	
280	2.052227e-07	0.000000e+00	1.800000e+00	0.000000e+00	
281	2.053041e-07	0.000000e+00	1.800000e+00	0.000000e+00	
282	2.054009e-07	0.000000e+00	1.800000e+00	0.000000e+00	
283	2.054869e-07	0.000000e+00	1.800000e+00	0.000000e+00	
284	2.055750e-07	0.000000e+00	1.800000e+00	0.000000e+00	
285	2.056345e-07	0.000000e+00	1.800000e+00	0.000000e+00	
286	2.056403e-07	0.000000e+00	1.800000e+00	0.000000e+00	

Index   time                            clk             j               
--------------------------------------------------------------------------------
287	2.056521e-07	0.000000e+00	1.800000e+00	0.000000e+00	
288	2.056756e-07	0.000000e+00	1.800000e+00	0.000000e+00	
289	2.057225e-07	0.000000e+00	1.800000e+00	0.000000e+00	
290	2.057953e-07	0.000000e+00	1.800000e+00	0.000000e+00	
291	2.058994e-07	0.000000e+00	1.800000e+00	0.000000e+00	
292	2.060237e-07	0.000000e+00	1.800000e+00	0.000000e+00	
293	2.062085e-07	0.000000e+00	1.800000e+00	0.000000e+00	
294	2.065009e-07	0.000000e+00	1.800000e+00	0.000000e+00	
295	2.070857e-07	0.000000e+00	1.800000e+00	0.000000e+00	
296	2.082553e-07	0.000000e+00	1.800000e+00	0.000000e+00	
297	2.102269e-07	0.000000e+00	1.800000e+00	0.000000e+00	
298	2.139943e-07	0.000000e+00	1.800000e+00	0.000000e+00	
299	2.172000e-07	0.000000e+00	1.800000e+00	0.000000e+00	
300	2.172100e-07	0.000000e+00	1.620000e+00	0.000000e+00	
301	2.172300e-07	0.000000e+00	1.260000e+00	0.000000e+00	
302	2.172483e-07	0.000000e+00	9.297655e-01	0.000000e+00	
303	2.172668e-07	0.000000e+00	5.981061e-01	0.000000e+00	
304	2.172877e-07	0.000000e+00	2.212391e-01	0.000000e+00	
305	2.173000e-07	0.000000e+00	0.000000e+00	0.000000e+00	
306	2.173010e-07	0.000000e+00	0.000000e+00	0.000000e+00	
307	2.173031e-07	0.000000e+00	0.000000e+00	0.000000e+00	
308	2.173072e-07	0.000000e+00	0.000000e+00	0.000000e+00	
309	2.173153e-07	0.000000e+00	0.000000e+00	0.000000e+00	
310	2.173317e-07	0.000000e+00	0.000000e+00	0.000000e+00	
311	2.173644e-07	0.000000e+00	0.000000e+00	0.000000e+00	
312	2.174172e-07	0.000000e+00	0.000000e+00	0.000000e+00	
313	2.174790e-07	0.000000e+00	0.000000e+00	0.000000e+00	
314	2.175636e-07	0.000000e+00	0.000000e+00	0.000000e+00	
315	2.176877e-07	0.000000e+00	0.000000e+00	0.000000e+00	
316	2.178734e-07	0.000000e+00	0.000000e+00	0.000000e+00	
317	2.181964e-07	0.000000e+00	0.000000e+00	0.000000e+00	
318	2.188424e-07	0.000000e+00	0.000000e+00	0.000000e+00	
319	2.198145e-07	0.000000e+00	0.000000e+00	0.000000e+00	
320	2.213285e-07	0.000000e+00	0.000000e+00	0.000000e+00	
321	2.242889e-07	0.000000e+00	0.000000e+00	0.000000e+00	
322	2.291936e-07	0.000000e+00	0.000000e+00	0.000000e+00	
323	2.381793e-07	0.000000e+00	0.000000e+00	0.000000e+00	
324	2.501000e-07	0.000000e+00	0.000000e+00	0.000000e+00	
325	2.501100e-07	0.000000e+00	1.800000e-01	0.000000e+00	
326	2.501300e-07	0.000000e+00	5.400000e-01	0.000000e+00	
327	2.501537e-07	0.000000e+00	9.664126e-01	0.000000e+00	
328	2.501789e-07	0.000000e+00	1.420032e+00	0.000000e+00	
329	2.502000e-07	0.000000e+00	1.800000e+00	4.764560e-13	
330	2.502018e-07	0.000000e+00	1.800000e+00	3.301688e-02	
331	2.502055e-07	0.000000e+00	1.800000e+00	9.905063e-02	
