         * /home/20ec3038/esim-workspace/conversionff/conversionff.cir
         Transient Analysis  Wed Oct  5 11:15:09  2022
--------------------------------------------------------------------------------
Index   time            a2#branch_1_0   a4#branch_1_0   v1#branch       
--------------------------------------------------------------------------------
0	0.000000e+00	0.000000e+00	0.000000e+00	-1.77265e-05	
1	1.000000e-12	-8.56520e-18	3.469447e-18	-1.77265e-05	
2	2.000000e-12	-2.05998e-18	1.387779e-17	-1.77265e-05	
3	4.000000e-12	-1.04897e-17	-3.46945e-18	-1.77265e-05	
4	8.000000e-12	7.033762e-18	4.336809e-19	-1.77265e-05	
5	1.600000e-11	-3.38813e-18	4.336809e-18	-1.77265e-05	
6	3.200000e-11	5.617523e-18	-7.91468e-18	-1.77265e-05	
7	6.400000e-11	-9.53251e-18	-2.05998e-18	-1.77265e-05	
8	1.000000e-10	1.207530e-17	8.836248e-18	-1.77265e-05	
9	1.015035e-10	2.993899e-05	2.993899e-05	1.474497e-04	
10	1.045105e-10	2.962342e-05	2.962342e-05	1.543165e-04	
11	1.105246e-10	3.717143e-05	3.717143e-05	1.295123e-04	
12	1.225527e-10	4.679609e-05	4.679609e-05	1.302267e-04	
13	1.394976e-10	4.074246e-05	4.074246e-05	1.809830e-04	
14	1.576174e-10	1.772982e-05	1.772982e-05	1.565449e-04	
15	1.818945e-10	-1.98395e-05	-1.98395e-05	1.636890e-04	
16	2.000000e-10	-3.23814e-05	-3.23814e-05	1.116970e-04	
17	2.016312e-10	-6.95052e-05	-6.95052e-05	5.176339e-05	
18	2.048935e-10	-6.15841e-05	-6.15841e-05	4.425498e-05	
19	2.114182e-10	-4.86430e-05	-4.86430e-05	3.812194e-05	
20	2.244676e-10	-3.09777e-05	-3.09777e-05	2.189988e-05	
21	2.505663e-10	-1.30307e-05	-1.30307e-05	6.758524e-06	
22	2.792014e-10	-2.80953e-06	-2.80953e-06	-1.34601e-05	
23	3.187303e-10	-3.74751e-06	-3.74751e-06	-4.99066e-06	
24	3.601053e-10	8.519265e-07	8.519265e-07	-1.96874e-05	
25	4.403349e-10	-2.04395e-06	-2.04395e-06	-9.06767e-06	
26	5.830288e-10	1.797654e-06	1.797654e-06	-2.21703e-05	
27	7.851953e-10	-1.81293e-06	-1.81293e-06	-9.77656e-06	
28	1.111087e-09	1.807297e-06	1.807297e-06	-2.22219e-05	
29	1.688561e-09	-1.80623e-06	-1.80623e-06	-9.79942e-06	
30	2.843508e-09	1.805800e-06	1.805800e-06	-2.22175e-05	
31	5.153403e-09	-1.80561e-06	-1.80561e-06	-9.80155e-06	
32	9.773193e-09	1.805517e-06	1.805517e-06	-2.22165e-05	
33	1.720000e-08	-1.80546e-06	-1.80546e-06	-9.80207e-06	
34	1.721000e-08	-2.00710e-05	-2.00710e-05	-8.94784e-05	
35	1.723000e-08	-1.84278e-05	-1.84278e-05	-1.11356e-04	
36	1.724779e-08	-3.25939e-05	-3.25939e-05	-2.18178e-04	
37	1.726616e-08	-2.22311e-05	-2.22311e-05	-1.83562e-04	
38	1.728802e-08	-3.54713e-05	-3.54713e-05	-2.71894e-04	
39	1.730000e-08	-2.90534e-05	-2.90534e-05	-2.25050e-04	
40	1.730102e-08	1.899884e-05	1.899884e-05	-9.03378e-05	
41	1.730306e-08	1.741256e-05	1.741256e-05	-8.65962e-05	
42	1.730714e-08	1.750877e-05	1.750877e-05	-8.40423e-05	
43	1.731530e-08	1.475544e-05	1.475544e-05	-7.50212e-05	
44	1.733162e-08	1.263020e-05	1.263020e-05	-6.36342e-05	
45	1.736425e-08	7.105120e-06	7.105120e-06	-4.37548e-05	
46	1.742952e-08	3.389565e-06	3.389565e-06	-2.68443e-05	
47	1.750661e-08	7.338072e-07	7.338072e-07	-1.91279e-05	
48	1.760584e-08	1.124117e-06	1.124117e-06	-1.88951e-05	
49	1.773638e-08	-5.16131e-08	-5.16131e-08	-1.71537e-05	
50	1.797554e-08	7.393624e-07	7.393624e-07	-1.85211e-05	
51	1.835948e-08	-3.23756e-07	-3.23755e-07	-1.70512e-05	
52	1.912735e-08	5.587923e-07	5.587898e-07	-1.84711e-05	
53	2.037247e-08	-4.34342e-07	-4.34338e-07	-1.70183e-05	
54	2.247434e-08	5.021377e-07	5.021313e-07	-1.84546e-05	

Index   time            a2#branch_1_0   a4#branch_1_0   v1#branch       
--------------------------------------------------------------------------------
55	2.597240e-08	-4.64845e-07	-4.64837e-07	-1.70093e-05	
56	3.234173e-08	4.852175e-07	4.852087e-07	-1.84497e-05	
57	4.334219e-08	-4.74305e-07	-4.74295e-07	-1.70065e-05	
58	5.010000e-08	4.810672e-07	4.810568e-07	-1.84485e-05	
59	5.011000e-08	3.929777e-05	3.929760e-05	1.578519e-04	
60	5.013000e-08	5.517956e-05	5.517968e-05	1.083465e-04	
61	5.014735e-08	2.234511e-05	2.234490e-05	2.155283e-04	
62	5.017010e-08	2.805408e-05	2.805414e-05	1.156432e-04	
63	5.019526e-08	-2.77880e-05	-2.77886e-05	1.775312e-04	
64	5.020000e-08	-2.65641e-05	-2.65642e-05	8.504518e-05	
65	5.020062e-08	-5.77256e-05	-5.77257e-05	5.416106e-05	
66	5.020187e-08	-5.82165e-05	-5.82166e-05	4.823680e-05	
67	5.020435e-08	-5.09939e-05	-5.09939e-05	4.803592e-05	
68	5.020933e-08	-4.55449e-05	-4.55450e-05	3.800977e-05	
69	5.021929e-08	-3.07493e-05	-3.07494e-05	2.980785e-05	
70	5.023919e-08	-1.81827e-05	-1.81827e-05	1.058882e-05	
71	5.027504e-08	-2.54684e-06	-2.54659e-06	-7.32525e-06	
72	5.030000e-08	-4.67881e-06	-4.67926e-06	-9.07092e-06	
73	5.030341e-08	-2.58729e-06	-2.58739e-06	-1.00060e-05	
74	5.031022e-08	-2.26111e-06	-2.26121e-06	-1.05724e-05	
75	5.032385e-08	-1.81537e-06	-1.81548e-06	-1.15865e-05	
76	5.035111e-08	-1.12372e-06	-1.12383e-06	-1.30410e-05	
77	5.040562e-08	-4.78996e-07	-4.79150e-07	-1.47069e-05	
78	5.051465e-08	-4.08939e-08	-4.11719e-08	-1.57883e-05	
79	5.071293e-08	-1.06391e-08	-1.15740e-08	-1.60278e-05	
80	5.098260e-08	1.724142e-08	1.127693e-08	-1.59974e-05	
81	5.144449e-08	-4.22831e-08	1.174707e-08	-1.60213e-05	
82	5.227797e-08	8.503029e-08	-5.53457e-08	-1.60132e-05	
83	5.315316e-08	-1.92583e-07	1.544810e-07	-1.61010e-05	
84	5.356911e-08	-1.83804e-06	4.768719e-07	-2.19887e-05	
85	5.382955e-08	1.980803e-06	1.948829e-07	-1.88880e-05	
86	5.402694e-08	8.113507e-07	-4.35239e-08	-1.30995e-05	
87	5.426062e-08	1.462866e-06	-4.33992e-07	-8.92384e-06	
88	5.454700e-08	2.372635e-07	3.034497e-07	-4.34088e-06	
89	5.492030e-08	5.543477e-07	-4.55113e-07	-1.77141e-06	
90	5.538231e-08	-2.45651e-07	4.334148e-07	-3.90496e-07	
91	5.589918e-08	3.094838e-07	-4.59845e-07	-1.39896e-07	
92	5.665849e-08	-2.89501e-07	4.656469e-07	3.543652e-08	
93	5.775918e-08	2.855249e-07	-4.69998e-07	-3.19781e-08	
94	5.996057e-08	-2.83590e-07	4.719391e-07	2.984355e-08	
95	6.436335e-08	2.826471e-07	-4.72871e-07	-2.88937e-08	
96	6.720000e-08	-2.81222e-07	4.742543e-07	2.730453e-08	
97	6.721000e-08	-2.06424e-05	-1.92174e-05	-7.36862e-05	
98	6.723000e-08	-2.08123e-05	-2.31059e-05	-9.64152e-05	
99	6.724835e-08	-3.47466e-05	-3.62111e-05	-2.06330e-04	
100	6.726677e-08	-1.96390e-05	-2.38517e-05	-1.68728e-04	
101	6.728771e-08	-3.63512e-05	-3.74763e-05	-2.55310e-04	
102	6.730000e-08	-2.67256e-05	-2.99001e-05	-2.06069e-04	
103	6.730102e-08	2.250270e-05	1.961389e-05	-7.09181e-05	
104	6.730307e-08	2.040235e-05	1.761097e-05	-6.69459e-05	
105	6.730716e-08	1.952880e-05	1.793611e-05	-6.43899e-05	
106	6.731534e-08	1.533349e-05	1.473620e-05	-5.51018e-05	
107	6.733169e-08	1.135613e-05	1.286107e-05	-4.41826e-05	
108	6.736441e-08	5.242899e-06	7.347498e-06	-2.52983e-05	
109	6.741715e-08	2.558006e-06	4.585815e-06	-1.32704e-05	
110	6.747901e-08	1.350394e-06	1.178118e-06	-4.96802e-06	
111	6.756350e-08	1.017075e-06	1.543251e-06	-3.76078e-06	
112	6.768760e-08	5.134300e-07	-2.04431e-07	-6.80837e-07	

Index   time            a2#branch_1_0   a4#branch_1_0   v1#branch       
--------------------------------------------------------------------------------
113	6.787320e-08	4.776711e-07	9.540272e-07	-1.74765e-06	
114	6.819607e-08	1.189009e-07	-4.61902e-07	4.924538e-07	
115	6.884182e-08	1.901726e-07	7.440287e-07	-8.93800e-07	
116	6.981368e-08	-3.60514e-08	-5.89287e-07	7.983279e-07	
117	7.132683e-08	1.239602e-07	6.767954e-07	-8.51533e-07	
118	7.428640e-08	-7.47520e-08	-6.27338e-07	8.227851e-07	
119	7.918856e-08	1.009926e-07	6.535204e-07	-8.37802e-07	
120	8.817162e-08	-8.68338e-08	-6.39307e-07	8.295663e-07	
121	1.001000e-07	9.469480e-08	6.471215e-07	-8.34127e-07	
122	1.001100e-07	4.586700e-05	5.147128e-05	1.347785e-04	
123	1.001300e-07	4.211548e-05	4.671378e-05	1.743716e-04	
124	1.001537e-07	2.604570e-05	2.902461e-05	1.856959e-04	
125	1.001789e-07	8.692389e-06	1.364244e-05	1.659904e-04	
126	1.002000e-07	-2.27942e-05	-1.10097e-05	1.529785e-04	
127	1.002018e-07	-5.51730e-05	-5.68163e-05	7.357165e-05	
128	1.002055e-07	-4.77478e-05	-5.10631e-05	6.478003e-05	
129	1.002128e-07	-3.59458e-05	-4.15634e-05	5.775191e-05	
130	1.002275e-07	-2.11081e-05	-2.81603e-05	3.997062e-05	
131	1.002569e-07	-5.33696e-06	-1.14340e-05	2.444640e-05	
132	1.002861e-07	-3.85276e-06	-6.61626e-06	1.363097e-05	
133	1.003294e-07	4.586518e-07	-2.27904e-06	9.088448e-06	
134	1.003786e-07	-1.90442e-06	-1.49310e-06	3.846160e-06	
135	1.004770e-07	1.000161e-06	3.670626e-07	3.276911e-06	
136	1.006160e-07	-1.54970e-06	-4.08865e-07	5.374093e-07	
137	1.008415e-07	1.215521e-06	4.424858e-07	1.729370e-06	
138	1.012357e-07	-1.36647e-06	-4.25068e-07	-6.94957e-07	
139	1.020241e-07	1.331239e-06	4.286380e-07	9.351414e-07	
140	1.030126e-07	-1.33043e-06	-4.28562e-07	-9.39555e-07	
141	1.047229e-07	1.330259e-06	4.284716e-07	9.397886e-07	
142	1.079442e-07	-1.33020e-06	-4.28469e-07	-9.39880e-07	
143	1.143867e-07	1.330161e-06	4.284345e-07	9.398261e-07	
144	1.172000e-07	-1.33009e-06	-4.28415e-07	-9.39869e-07	
145	1.172100e-07	-2.06000e-05	-1.91588e-05	-7.37754e-05	
146	1.172300e-07	-2.08157e-05	-2.31294e-05	-9.63410e-05	
147	1.172483e-07	-3.47317e-05	-3.61762e-05	-2.06405e-04	
148	1.172668e-07	-1.96495e-05	-2.38821e-05	-1.68651e-04	
149	1.172877e-07	-3.63380e-05	-3.74429e-05	-2.55382e-04	
150	1.173000e-07	-2.67374e-05	-2.99319e-05	-2.05995e-04	
151	1.173010e-07	2.250269e-05	1.961430e-05	-7.09159e-05	
152	1.173031e-07	2.040248e-05	1.761109e-05	-6.69477e-05	
153	1.173072e-07	1.952814e-05	1.793611e-05	-6.43865e-05	
154	1.173153e-07	1.533250e-05	1.473564e-05	-5.51007e-05	
155	1.173317e-07	1.135422e-05	1.286008e-05	-4.41756e-05	
156	1.173644e-07	5.241373e-06	7.345927e-06	-2.52939e-05	
157	1.174172e-07	2.557455e-06	4.585246e-06	-1.32663e-05	
158	1.174790e-07	1.350347e-06	1.177645e-06	-4.96826e-06	
159	1.175635e-07	1.016756e-06	1.543129e-06	-3.75820e-06	
160	1.176876e-07	5.135453e-07	-2.04523e-07	-6.82355e-07	
161	1.178733e-07	4.774157e-07	9.540281e-07	-1.74554e-06	
162	1.181962e-07	1.190565e-07	-4.61962e-07	4.907197e-07	
163	1.188421e-07	1.899488e-07	7.440374e-07	-8.91875e-07	
164	1.198141e-07	-3.58601e-08	-5.89326e-07	7.964386e-07	
165	1.213276e-07	1.237524e-07	6.768172e-07	-8.49635e-07	
166	1.242875e-07	-7.45542e-08	-6.27370e-07	8.208937e-07	
167	1.291908e-07	1.007897e-07	6.535469e-07	-8.35908e-07	
168	1.381751e-07	-8.66339e-08	-6.39337e-07	8.276740e-07	
169	1.501000e-07	9.449399e-08	6.471500e-07	-8.32234e-07	
170	1.501100e-07	4.586702e-05	5.147130e-05	1.347786e-04	

Index   time            a2#branch_1_0   a4#branch_1_0   v1#branch       
--------------------------------------------------------------------------------
171	1.501300e-07	4.211547e-05	4.671378e-05	1.743716e-04	
172	1.501537e-07	2.604590e-05	2.902482e-05	1.856959e-04	
173	1.501789e-07	8.684790e-06	1.363687e-05	1.659909e-04	
174	1.502000e-07	-2.27919e-05	-1.10075e-05	1.529792e-04	
175	1.502018e-07	-5.51708e-05	-5.68148e-05	7.357211e-05	
176	1.502055e-07	-4.77461e-05	-5.10619e-05	6.478050e-05	
177	1.502128e-07	-3.59446e-05	-4.15627e-05	5.775236e-05	
178	1.502275e-07	-2.11076e-05	-2.81601e-05	3.997102e-05	
179	1.502569e-07	-5.33662e-06	-1.14340e-05	2.444663e-05	
180	1.502861e-07	-3.85284e-06	-6.61636e-06	1.363105e-05	
181	1.503000e-07	-4.47573e-07	-4.38645e-06	1.303029e-05	
182	1.503043e-07	-1.61165e-06	-4.44114e-06	1.141069e-05	
183	1.503130e-07	-1.37857e-06	-3.80056e-06	1.017801e-05	
184	1.503303e-07	-1.00370e-06	-2.78221e-06	8.258344e-06	
185	1.503650e-07	-6.76217e-07	-1.48784e-06	5.636865e-06	
186	1.504342e-07	-3.96072e-07	-3.59914e-07	3.141936e-06	
187	1.505728e-07	-2.54073e-07	9.398025e-08	1.548332e-06	
188	1.507674e-07	-1.33696e-07	-5.50583e-08	1.080982e-06	
189	1.510874e-07	-6.53220e-08	7.871784e-08	2.781375e-07	
190	1.517275e-07	3.632839e-09	-7.25574e-08	1.433402e-07	
191	1.526520e-07	-7.61449e-09	7.338319e-08	-1.15037e-07	
192	1.540733e-07	7.816019e-09	-7.37026e-08	1.128935e-07	
193	1.565657e-07	-7.82701e-09	7.376035e-08	-1.12540e-07	
194	1.615504e-07	7.817286e-09	-7.38583e-08	1.123758e-07	
195	1.672000e-07	-7.80530e-09	7.388798e-08	-1.12364e-07	
196	1.672100e-07	-2.05974e-05	-1.91627e-05	-7.37696e-05	
197	1.672300e-07	-2.08207e-05	-2.31298e-05	-9.63480e-05	
198	1.672483e-07	-3.47266e-05	-3.61768e-05	-2.06404e-04	
199	1.672668e-07	-1.96541e-05	-2.38815e-05	-1.68659e-04	
200	1.672877e-07	-3.63337e-05	-3.74440e-05	-2.55380e-04	
201	1.673000e-07	-2.67417e-05	-2.99311e-05	-2.06001e-04	
202	1.673010e-07	2.250293e-05	1.961454e-05	-7.09171e-05	
203	1.673031e-07	2.040277e-05	1.761112e-05	-6.69486e-05	
204	1.673072e-07	1.952880e-05	1.793656e-05	-6.43886e-05	
205	1.673153e-07	1.533349e-05	1.473611e-05	-5.51034e-05	
206	1.673317e-07	1.135565e-05	1.286114e-05	-4.41801e-05	
207	1.673644e-07	5.242577e-06	7.346984e-06	-2.52986e-05	
208	1.674172e-07	2.557825e-06	4.585906e-06	-1.32684e-05	
209	1.674790e-07	1.350453e-06	1.177846e-06	-4.96937e-06	
210	1.675635e-07	1.016936e-06	1.543404e-06	-3.75896e-06	
211	1.676876e-07	5.135260e-07	-2.04626e-07	-6.82436e-07	
212	1.678732e-07	4.775461e-07	9.542026e-07	-1.74593e-06	
213	1.681961e-07	1.190064e-07	-4.62088e-07	4.908084e-07	
214	1.688419e-07	1.900532e-07	7.442047e-07	-8.92116e-07	
215	1.698138e-07	-3.59387e-08	-5.89469e-07	7.966517e-07	
216	1.713270e-07	1.238442e-07	6.769741e-07	-8.49855e-07	
217	1.742866e-07	-7.46380e-08	-6.27519e-07	8.211088e-07	
218	1.791890e-07	1.008776e-07	6.537000e-07	-8.36125e-07	
219	1.881723e-07	-8.67194e-08	-6.39488e-07	8.278899e-07	
220	2.001000e-07	9.458021e-08	6.473016e-07	-8.32451e-07	
221	2.001100e-07	4.586700e-05	5.147128e-05	1.347786e-04	
222	2.001300e-07	4.211548e-05	4.671378e-05	1.743716e-04	
223	2.001537e-07	2.604571e-05	2.902463e-05	1.856958e-04	
224	2.001789e-07	8.692406e-06	1.364246e-05	1.659904e-04	
225	2.002000e-07	-2.27942e-05	-1.10097e-05	1.529785e-04	
226	2.002018e-07	-5.51730e-05	-5.68163e-05	7.357159e-05	
227	2.002055e-07	-4.77478e-05	-5.10631e-05	6.477997e-05	
228	2.002128e-07	-3.59457e-05	-4.15634e-05	5.775185e-05	

Index   time            a2#branch_1_0   a4#branch_1_0   v1#branch       
--------------------------------------------------------------------------------
229	2.002275e-07	-2.11080e-05	-2.81603e-05	3.997056e-05	
230	2.002569e-07	-5.33694e-06	-1.14340e-05	2.444636e-05	
231	2.002861e-07	-3.85276e-06	-6.61625e-06	1.363095e-05	
232	2.003294e-07	4.586571e-07	-2.27903e-06	9.088431e-06	
233	2.003786e-07	-1.90443e-06	-1.49310e-06	3.846152e-06	
234	2.004770e-07	1.000164e-06	3.670642e-07	3.276907e-06	
235	2.006160e-07	-1.54971e-06	-4.08867e-07	5.374090e-07	
236	2.008415e-07	1.215525e-06	4.424870e-07	1.729366e-06	
237	2.012357e-07	-1.36647e-06	-4.25069e-07	-6.94957e-07	
238	2.020241e-07	1.331242e-06	4.286392e-07	9.351393e-07	
239	2.021789e-07	-1.32905e-06	-4.27950e-07	-9.42437e-07	
240	2.021810e-07	-3.49059e-05	2.936252e-06	1.703057e-05	
241	2.021852e-07	-3.70558e-05	2.163528e-06	1.856565e-05	
242	2.021935e-07	-4.02200e-05	1.444492e-06	2.131909e-05	
243	2.022102e-07	-4.49610e-05	5.978239e-07	2.470339e-05	
244	2.022436e-07	-5.08085e-05	4.238195e-07	2.777852e-05	
245	2.023104e-07	-6.00871e-05	2.364694e-07	2.802208e-05	
246	2.023864e-07	-5.73223e-05	-1.85831e-06	2.354228e-05	
247	2.024672e-07	-5.19111e-05	-1.99811e-06	1.179944e-05	
248	2.025242e-07	-1.88869e-05	-6.22969e-06	-2.24938e-06	
249	2.025866e-07	-4.57828e-05	-3.48888e-06	3.590687e-06	
250	2.026345e-07	-5.58957e-05	-1.71251e-06	-2.28396e-06	
251	2.026882e-07	-7.44516e-05	-2.17668e-07	7.832580e-06	
252	2.027582e-07	-7.67006e-05	-1.09055e-06	1.106972e-05	
253	2.028336e-07	-9.15907e-05	4.758169e-07	2.482205e-05	
254	2.029041e-07	-7.87264e-05	-1.64813e-07	1.558902e-05	
255	2.029962e-07	-9.00281e-05	1.523415e-06	2.691698e-05	
256	2.031346e-07	-7.85916e-05	-5.43970e-07	1.799456e-05	
257	2.031789e-07	-8.87477e-05	1.782365e-06	2.805287e-05	
258	2.031822e-07	-2.05410e-05	-2.70491e-06	-1.81968e-05	
259	2.031887e-07	-1.38179e-05	-2.61662e-06	-2.36850e-05	
260	2.032019e-07	-1.58120e-05	-2.28559e-06	-1.98537e-05	
261	2.032282e-07	-8.06590e-06	-1.46256e-06	-2.53417e-05	
262	2.032807e-07	-8.01233e-06	-3.77311e-07	-2.24914e-05	
263	2.033738e-07	-4.42135e-07	7.610239e-07	-2.70013e-05	
264	2.034752e-07	-2.98304e-06	1.666215e-06	-2.08431e-05	
265	2.035839e-07	1.543932e-06	1.721493e-06	-2.17699e-05	
266	2.037472e-07	-2.53498e-06	1.581744e-06	-1.27088e-05	
267	2.039258e-07	1.837529e-06	1.211895e-06	-1.20682e-05	
268	2.042538e-07	-2.21257e-06	5.541294e-07	-2.12204e-06	
269	2.045710e-07	2.054629e-06	2.209787e-07	-3.75089e-06	
270	2.046345e-07	-2.10634e-06	1.772146e-07	6.308458e-07	
271	2.046365e-07	6.130584e-05	-3.18254e-06	-4.08146e-05	
272	2.046406e-07	6.953770e-05	-3.28710e-06	-4.88643e-05	
273	2.046487e-07	6.872139e-05	-2.07496e-06	-4.23487e-05	
274	2.046649e-07	7.781166e-05	-1.36351e-06	-4.87071e-05	
275	2.046973e-07	7.809327e-05	2.880795e-07	-4.24595e-05	
276	2.047622e-07	8.324228e-05	2.206891e-07	-4.71241e-05	
277	2.048520e-07	7.783541e-05	5.173606e-07	-3.92076e-05	
278	2.050152e-07	7.688930e-05	-4.23391e-08	-3.96510e-05	
279	2.051054e-07	5.954583e-05	3.757557e-07	-2.02208e-05	
280	2.052227e-07	5.025664e-05	-1.29009e-07	-1.28822e-05	
281	2.053041e-07	5.172332e-05	1.477472e-07	-1.10820e-05	
282	2.054009e-07	5.649447e-05	-7.81715e-07	-1.52193e-05	
283	2.054869e-07	7.531473e-05	5.542315e-08	-3.53568e-05	
284	2.055750e-07	5.873691e-05	3.745868e-07	-3.25491e-05	
285	2.056345e-07	5.569605e-05	1.811690e-06	-4.70133e-05	
286	2.056403e-07	1.447359e-05	2.133377e-06	-1.64343e-05	

Index   time            a2#branch_1_0   a4#branch_1_0   v1#branch       
--------------------------------------------------------------------------------
287	2.056521e-07	1.134727e-05	1.779441e-06	-1.54076e-05	
288	2.056756e-07	7.223631e-06	-6.16785e-07	-9.65277e-06	
289	2.057225e-07	3.899940e-06	1.151691e-06	-6.33692e-06	
290	2.057953e-07	1.267430e-06	-9.81859e-07	-4.61584e-07	
291	2.058994e-07	4.743093e-07	8.735167e-07	-5.46452e-07	
292	2.060237e-07	-1.26859e-07	-1.05825e-06	1.516546e-06	
293	2.062085e-07	1.719353e-07	9.077158e-07	-5.30103e-07	
294	2.065009e-07	-1.64825e-07	-9.88830e-07	1.094893e-06	
295	2.070857e-07	1.681743e-07	9.600473e-07	-9.01313e-07	
296	2.082553e-07	-1.67936e-07	-9.62249e-07	9.182163e-07	
297	2.102269e-07	1.678679e-07	9.624558e-07	-9.20743e-07	
298	2.139943e-07	-1.67905e-07	-9.62478e-07	9.213358e-07	
299	2.172000e-07	1.678672e-07	9.624612e-07	-9.21859e-07	
300	2.172100e-07	-1.91586e-05	-2.05934e-05	-7.37738e-05	
301	2.172300e-07	-2.31312e-05	-2.08216e-05	-9.63425e-05	
302	2.172483e-07	-3.61746e-05	-3.47249e-05	-2.06408e-04	
303	2.172668e-07	-2.38834e-05	-1.96556e-05	-1.68653e-04	
304	2.172877e-07	-3.74421e-05	-3.63325e-05	-2.55384e-04	
305	2.173000e-07	-2.99330e-05	-2.67433e-05	-2.05995e-04	
306	2.173010e-07	1.961453e-05	2.250291e-05	-7.09159e-05	
307	2.173031e-07	1.761106e-05	2.040274e-05	-6.69477e-05	
308	2.173072e-07	1.793659e-05	1.952883e-05	-6.43876e-05	
309	2.173153e-07	1.473613e-05	1.533353e-05	-5.51028e-05	
310	2.173317e-07	1.286130e-05	1.135579e-05	-4.41795e-05	
311	2.173644e-07	7.347079e-06	5.242585e-06	-2.52985e-05	
312	2.174172e-07	4.582596e-06	2.555708e-06	-1.32563e-05	
313	2.174790e-07	1.177788e-06	1.350317e-06	-4.96907e-06	
314	2.175636e-07	1.542858e-06	1.016616e-06	-3.75643e-06	
315	2.176877e-07	-2.04781e-07	5.133182e-07	-6.82101e-07	
316	2.178734e-07	9.542557e-07	4.775158e-07	-1.74536e-06	
317	2.181964e-07	-4.62304e-07	1.187906e-07	4.911399e-07	
318	2.188424e-07	7.443127e-07	1.901220e-07	-8.92050e-07	
319	2.198145e-07	-5.89639e-07	-3.60730e-08	7.966598e-07	
320	2.213285e-07	6.771117e-07	1.239457e-07	-8.49848e-07	
321	2.242889e-07	-6.27678e-07	-7.47605e-08	8.211160e-07	
322	2.291936e-07	6.538483e-07	1.009897e-07	-8.36127e-07	
323	2.381793e-07	-6.39642e-07	-8.68375e-08	8.278960e-07	
324	2.501000e-07	6.474542e-07	9.469659e-08	-8.32456e-07	
325	2.501100e-07	5.147133e-05	4.586704e-05	1.347785e-04	
326	2.501300e-07	4.671375e-05	4.211545e-05	1.743716e-04	
327	2.501537e-07	2.902488e-05	2.604596e-05	1.856959e-04	
328	2.501789e-07	1.363689e-05	8.684825e-06	1.659909e-04	
329	2.502000e-07	-1.10074e-05	-2.27918e-05	1.529792e-04	
330	2.502018e-07	-5.68147e-05	-5.51708e-05	7.357211e-05	
331	2.502055e-07	-5.10619e-05	-4.77461e-05	6.478049e-05	
